
**** 04/05/18 17:28:43 ****** PSpice 17.2.0 (March 2016) ****** ID# 0 ********

 ** Profile: "SCHEMATIC1-Prelab2"  [ c:\cadence\pspice work\prelab 2-pspicefiles\schematic1\prelab2.sim ] 


 ****     CIRCUIT DESCRIPTION


******************************************************************************




** Creating circuit file "Prelab2.cir" 
** WARNING: THIS AUTOMATICALLY GENERATED FILE MAY BE OVERWRITTEN BY SUBSEQUENT SIMULATIONS

*Libraries: 
* Profile Libraries :
* Local Libraries :
* From [PSPICE NETLIST] section of C:\SPB_Data\cdssetup\OrCAD_PSpice\17.2.0\PSpice.ini file:
.lib "C:\Cadence\RHIT_Libraries\Class.lib" 
.lib "nom.lib" 

*Analysis directives: 
.TRAN  0 0.05 0 10u 
.OPTIONS ADVCONV
.PROBE64 V(alias(*)) I(alias(*)) W(alias(*)) D(alias(*)) NOISE(alias(*)) 
.INC "..\SCHEMATIC1.net" 



**** INCLUDING SCHEMATIC1.net ****
* source ECE250HW3
V_V1         VIN 0 PWL
+ TIME_SCALE_FACTOR={1/60}
+ VALUE_SCALE_FACTOR=15
+repeat forever
+(0,0) (0.25,1) (0.75,-1) (1,0)
+endrepeat
R_R1         0 VOUT 1k 
V_V2         VIN2 0 PWL
+ TIME_SCALE_FACTOR={1/60}
+ VALUE_SCALE_FACTOR=30
+repeat forever
+(0,0) (0.25,1) (0.75,-1) (1,0)
+endrepeat
V_V3         VIN3 0 PWL
+ TIME_SCALE_FACTOR={1/60}
+ VALUE_SCALE_FACTOR=15
+repeat forever
+(0,0) (0.25,1) (0.75,-1) (1,0)
+endrepeat
R_R6         VIN VOUT 1k 
D_D9         VIN VOUT D1N4733 
R_R7         VIN2 VX 1k 
C_C1         N05391 0 100u 
C_C2         0 N05395 100u 
V_V7         N05391 0  DC 15
V_V8         0 N05395  DC 15
X_U1A         VX 0 N05391 N05395 VOUT2 TL084/301/TI
D_D12         VX N05391 D1N4004 
D_D13         N05395 VX D1N4004 
R_R8         VIN3 N07041 1k 
R_R9         N06975 0 500 
R_R10         N07003 0 1k 
R_R11         N07011 VOUT3N 500 
R_R12         VOUT3P VOUT3N 1k 
R_R14         VOUT4N VOUT4P 1k 
V_V9         VIN4 0 PWL
+ TIME_SCALE_FACTOR={1/60}
+ VALUE_SCALE_FACTOR=15
+repeat forever
+(0,0) (0.25,1) (0.75,-1) (1,0)
+endrepeat
D_D18         VIN4 VOUT4P D1N4733 
D_D19         0 VOUT4N D1N4733 
.model         S_D14 VSWITCH Roff=1e6 Ron=0.1 Voff=0 Von=1m
S_SD14         N07041 VOUT3P N07041 VOUT3P S_D14
.model         S_D15 VSWITCH Roff=1e6 Ron=0.1 Voff=0 Von=1m
S_SD15         N06975 VOUT3P N06975 VOUT3P S_D15
.model         S_D16 VSWITCH Roff=1e6 Ron=0.1 Voff=0 Von=1m
S_SD16         N07011 VIN3 N07011 VIN3 S_D16
.model         S_D17 VSWITCH Roff=1e6 Ron=0.1 Voff=0 Von=1m
S_SD17         VOUT3N N07003 VOUT3N N07003 S_D17

**** RESUMING Prelab2.cir ****
.END

**** 04/05/18 17:28:43 ****** PSpice 17.2.0 (March 2016) ****** ID# 0 ********

 ** Profile: "SCHEMATIC1-Prelab2"  [ c:\cadence\pspice work\prelab 2-pspicefiles\schematic1\prelab2.sim ] 


 ****     Diode MODEL PARAMETERS


******************************************************************************




               D1N4733         D1N4004         X_U1A.DX        
          IS    1.214000E-15   14.110000E-09  800.000000E-18 
           N                    1.984                        
         ISR    2.601000E-09                                 
         IKF                   94.81                         
          BV    5.1           400                            
         IBV     .70507        10.000000E-06                 
         NBV     .74348                                      
        IBVL    4.827400E-03                                 
        NBVL    6.7393                                       
          RS    1.078            .03389                      
          TT                    5.700000E-06                 
         CJO  185.000000E-12   25.890000E-12                 
          VJ     .75             .3245                       
           M     .3509           .44                         
        TBV1  176.471000E-06                                 


**** 04/05/18 17:28:43 ****** PSpice 17.2.0 (March 2016) ****** ID# 0 ********

 ** Profile: "SCHEMATIC1-Prelab2"  [ c:\cadence\pspice work\prelab 2-pspicefiles\schematic1\prelab2.sim ] 


 ****     Junction FET MODEL PARAMETERS


******************************************************************************




               X_U1A.JX        
               PJF             
         VTO   -1            
        BETA  270.100000E-06 
          IS   15.000000E-12 


**** 04/05/18 17:28:43 ****** PSpice 17.2.0 (March 2016) ****** ID# 0 ********

 ** Profile: "SCHEMATIC1-Prelab2"  [ c:\cadence\pspice work\prelab 2-pspicefiles\schematic1\prelab2.sim ] 


 ****     Voltage Controlled Switch MODEL PARAMETERS


******************************************************************************




               S_D14           S_D15           S_D16           S_D17           
         RON     .1              .1              .1              .1          
        ROFF    1.000000E+06    1.000000E+06    1.000000E+06    1.000000E+06 
         VON    1.000000E-03    1.000000E-03    1.000000E-03    1.000000E-03 
        VOFF    0               0               0               0            


**** 04/05/18 17:28:43 ****** PSpice 17.2.0 (March 2016) ****** ID# 0 ********

 ** Profile: "SCHEMATIC1-Prelab2"  [ c:\cadence\pspice work\prelab 2-pspicefiles\schematic1\prelab2.sim ] 


 ****     INITIAL TRANSIENT SOLUTION       TEMPERATURE =   27.000 DEG C


******************************************************************************



 NODE   VOLTAGE     NODE   VOLTAGE     NODE   VOLTAGE     NODE   VOLTAGE


(   VX)-45.05E-09  (  VIN)    0.0000  ( VIN2)    0.0000  ( VIN3)    0.0000      

( VIN4)    0.0000  ( VOUT)-109.3E-24  (VOUT2)    2.5066  (N05391)   15.0000     

(N05395)  -15.0000 (N06975)    0.0000 (N07003)    0.0000 (N07011)    0.0000     

(N07041)    0.0000 (VOUT3N)    0.0000 (VOUT3P)    0.0000 (VOUT4N) 891.0E-21     

(VOUT4P) 891.0E-21 (X_U1A.6)-355.0E-06                   (X_U1A.7)    2.5066    

(X_U1A.8)    2.5066                   (X_U1A.9)    0.0000                       

(X_U1A.10)    -.3986                  (X_U1A.11)  -14.6550                      

(X_U1A.12)  -14.6550                  (X_U1A.53)   12.8000                      

(X_U1A.54)  -12.8000                  (X_U1A.90) 5.013E-09                      

(X_U1A.91)   25.0000                  (X_U1A.92)  -25.0000                      

(X_U1A.99)    0.0000                  




    VOLTAGE SOURCE CURRENTS
    NAME         CURRENT

    V_V1         1.093E-25
    V_V2        -4.505E-11
    V_V3         0.000E+00
    V_V7        -1.419E-02
    V_V8        -1.419E-02
    V_V9         0.000E+00
    X_U1A.VB    -3.550E-09
    X_U1A.VC     1.029E-11
    X_U1A.VE     1.531E-11
    X_U1A.VLIM   5.013E-12
    X_U1A.VLP   -2.500E-11
    X_U1A.VLN   -2.500E-11

    TOTAL POWER DISSIPATION   4.26E-01  WATTS



          JOB CONCLUDED

**** 04/05/18 17:28:43 ****** PSpice 17.2.0 (March 2016) ****** ID# 0 ********

 ** Profile: "SCHEMATIC1-Prelab2"  [ c:\cadence\pspice work\prelab 2-pspicefiles\schematic1\prelab2.sim ] 


 ****     JOB STATISTICS SUMMARY


******************************************************************************



  Total job time (using Solver 1)   =         .28
