
**** 09/30/18 16:32:32 ******* PSpice Lite (March 2016) ******* ID# 10813 ****

 ** Profile: "SCHEMATIC1-hw5dcbias"  [ C:\Cadence\Pspice Work\ECE351hw5-PSpiceFiles\SCHEMATIC1\hw5dcbias.sim ] 


 ****     CIRCUIT DESCRIPTION


******************************************************************************




** Creating circuit file "hw5dcbias.cir" 
** WARNING: THIS AUTOMATICALLY GENERATED FILE MAY BE OVERWRITTEN BY SUBSEQUENT SIMULATIONS

*Libraries: 
* Profile Libraries :
* Local Libraries :
.LIB "../../../ece351hw5-pspicefiles/ece351hw5.lib" 
* From [PSPICE NETLIST] section of C:\SPB_Data\cdssetup\OrCAD_PSpice\17.2.0\PSpice.ini file:
.lib "nomd.lib" 

*Analysis directives: 
.OPTIONS ADVCONV
.PROBE64 V(alias(*)) I(alias(*)) W(alias(*)) D(alias(*)) NOISE(alias(*)) 
.INC "..\SCHEMATIC1.net" 



**** INCLUDING SCHEMATIC1.net ****
* source ECE351HW5
R_R1         N00456 N00428 388k 
R_R2         N00452 N00428 388k 
Q_Q1         N00456 N00460 N00495 Qn1 
Q_Q2         N00452 N00477 N00495 Qn2 
V_V1         N00460 0 
+SIN 0 1 60 0 0 0
V_V2         N00477 0 
+SIN 0 1 60 0 0 0
I_I1         N00495 N00416 DC 49.5u
V_V3         N00428 0  DC 15
V_V4         0 N00416  DC 15
V_V8         N01160 0 
+SIN 0 1 60 0 0 0
R_R3         N01054 N00972 388k 
Q_Q3         N01054 N01476 N01184 Qn1 
R_R4         N01060 N00972 388k 
V_V7         N01144 0 
+SIN 0 1 60 0 0 0
V_V5         N00972 0  DC 15
V_V6         0 N01192  DC 15
I_I2         N01184 N01192 DC 49u
Q_Q4         N01060 N01463 N01184 Qn3 
Q_Q5         N01054 N01144 N01476 Qn1 
Q_Q6         N01060 N01160 N01463 Qn4 

**** RESUMING hw5dcbias.cir ****
.END

**** 09/30/18 16:32:32 ******* PSpice Lite (March 2016) ******* ID# 10813 ****

 ** Profile: "SCHEMATIC1-hw5dcbias"  [ C:\Cadence\Pspice Work\ECE351hw5-PSpiceFiles\SCHEMATIC1\hw5dcbias.sim ] 


 ****     BJT MODEL PARAMETERS


******************************************************************************




               Qn1             Qn2             Qn3             Qn4             
               NPN             NPN             NPN             NPN             
       LEVEL    1               1               1               1            
          IS  100.000000E-18  100.000000E-18  100.000000E-18  100.000000E-18 
          BF  100             100             100             100            
          NF    1               1               1               1            
          BR    1               1               1               1            
          NR    1               1               1               1            
         ISS    0               0               0               0            
          RE    0               0               0               0            
          RC    0               0               0               0            
         CJE    0               0               0               0            
         VJE     .75             .75             .75             .75         
         CJC    0               0               0               0            
         VJC     .75             .75             .75             .75         
         MJC     .33             .33             .33             .33         
        XCJC    1               1               1               1            
         CJS    0               0               0               0            
         VJS     .75             .75             .75             .75         
          KF    0               0               0               0            
          AF    1               1               1               1            
          CN    2.42            2.42            2.42            2.42         
           D     .87             .87             .87             .87         


**** 09/30/18 16:32:32 ******* PSpice Lite (March 2016) ******* ID# 10813 ****

 ** Profile: "SCHEMATIC1-hw5dcbias"  [ C:\Cadence\Pspice Work\ECE351hw5-PSpiceFiles\SCHEMATIC1\hw5dcbias.sim ] 


 ****     SMALL SIGNAL BIAS SOLUTION       TEMPERATURE =   27.000 DEG C


******************************************************************************



 NODE   VOLTAGE     NODE   VOLTAGE     NODE   VOLTAGE     NODE   VOLTAGE


(N00416)  -15.0000 (N00428)   15.0000 (N00452)    5.4921 (N00456)    5.4921     

(N00460)    0.0000 (N00477)    0.0000 (N00495)    -.6783 (N00972)   15.0000     

(N01054)    5.4949 (N01060)    5.4949 (N01144)    0.0000 (N01160)    0.0000     

(N01184)   -1.2367 (N01192)  -15.0000 (N01463)    -.5587 (N01476)    -.5587 




    VOLTAGE SOURCE CURRENTS
    NAME         CURRENT

    V_V1        -2.450E-07
    V_V2        -2.450E-07
    V_V3        -4.901E-05
    V_V4        -4.950E-05
    V_V8        -2.396E-09
    V_V7        -2.396E-09
    V_V5        -4.900E-05
    V_V6        -4.900E-05

    TOTAL POWER DISSIPATION   2.95E-03  WATTS



          JOB CONCLUDED

**** 09/30/18 16:32:32 ******* PSpice Lite (March 2016) ******* ID# 10813 ****

 ** Profile: "SCHEMATIC1-hw5dcbias"  [ C:\Cadence\Pspice Work\ECE351hw5-PSpiceFiles\SCHEMATIC1\hw5dcbias.sim ] 


 ****     JOB STATISTICS SUMMARY


******************************************************************************



  Total job time (using Solver 1)   =         .02
