
**** 09/16/18 18:58:17 ******* PSpice Lite (March 2016) ******* ID# 10813 ****

 ** Profile: "SCHEMATIC1-ECEC351hw3"  [ C:\Cadence\Pspice Work\ECE351Hw3-PSpiceFiles\SCHEMATIC1\ECEC351hw3.sim ] 


 ****     CIRCUIT DESCRIPTION


******************************************************************************




** Creating circuit file "ECEC351hw3.cir" 
** WARNING: THIS AUTOMATICALLY GENERATED FILE MAY BE OVERWRITTEN BY SUBSEQUENT SIMULATIONS

*Libraries: 
* Profile Libraries :
* Local Libraries :
.LIB "../../../ece351hw3-pspicefiles/ece351hw3.lib" 
* From [PSPICE NETLIST] section of C:\SPB_Data\cdssetup\OrCAD_PSpice\17.2.0\PSpice.ini file:
.lib "nomd.lib" 

*Analysis directives: 
.OPTIONS ADVCONV
.PROBE64 V(alias(*)) I(alias(*)) W(alias(*)) D(alias(*)) NOISE(alias(*)) 
.INC "..\SCHEMATIC1.net" 



**** INCLUDING SCHEMATIC1.net ****
* source ECE351HW3
R_R1         N00381 N00377 750 
R_R2         N00373 N00366 2k 
C_C1         N00388 0 100u 
I_I1         N00388 N00426 DC 0.004785
V_V2         N00366 0  DC 15
V_V3         0 N00426  DC 15
V_V4         N00381 0 
+SIN 0 4 3k 0 0 0
V_V5         N01149 0  DC 15
V_V7         0 N01395  DC 15
R_R3         N01179 N01149 20.23k 
Q_Q3         N01179 N01575 N01395 Qb400 
M_M1         0 N01179 N01575 N01575 power_Mb200           
M_M2         0 N01179 N01575 N01575 power_Mbreakn           
Q_Q4         N01575 N01575 N01395 Qb400 
Q_Q5         N00373 N00377 N00388 Qb200 
Q_Q6         N02409 N02285 N02321 QbreakN 
Q_Q7         N02397 N02409 N02285 QbreakN 
Q_Q8         0 N02285 N02321 Qb800 
R_R4         N02285 N02321 10k 
R_R5         N02397 N02409 600k 
V_V8         N02397 0  DC 15
V_V9         0 N02321  DC 15

**** RESUMING ECEC351hw3.cir ****
.END

**** 09/16/18 18:58:17 ******* PSpice Lite (March 2016) ******* ID# 10813 ****

 ** Profile: "SCHEMATIC1-ECEC351hw3"  [ C:\Cadence\Pspice Work\ECE351Hw3-PSpiceFiles\SCHEMATIC1\ECEC351hw3.sim ] 


 ****     BJT MODEL PARAMETERS


******************************************************************************




               Qb400           Qb200           Qb800           QbreakN         
               NPN             NPN             NPN             NPN             
       LEVEL    1               1               1               1            
          IS  100.000000E-18  100.000000E-18  100.000000E-18  100.000000E-18 
          BF   50             350             100             100            
          NF    1               1               1               1            
         VAF                                  100                            
          BR    1               1               1               1            
          NR    1               1               1               1            
         ISS    0               0               0               0            
          RE    0               0               0               0            
          RC    0               0               0               0            
         CJE    0               0               0               0            
         VJE     .75             .75             .75             .75         
         CJC    0               0               0               0            
         VJC     .75             .75             .75             .75         
         MJC     .33             .33             .33             .33         
        XCJC    1               1               1               1            
         CJS    0               0               0               0            
         VJS     .75             .75             .75             .75         
          KF    0               0               0               0            
          AF    1               1               1               1            
          CN    2.42            2.42            2.42            2.42         
           D     .87             .87             .87             .87         


**** 09/16/18 18:58:17 ******* PSpice Lite (March 2016) ******* ID# 10813 ****

 ** Profile: "SCHEMATIC1-ECEC351hw3"  [ C:\Cadence\Pspice Work\ECE351Hw3-PSpiceFiles\SCHEMATIC1\ECEC351hw3.sim ] 


 ****     MOSFET MODEL PARAMETERS


******************************************************************************




               power_Mb200     power_Mbreakn   
               NMOS            NMOS            
       LEVEL    3               3            
           L    1.000000E-06    1.000000E-06 
           W    1               1            
         VTO    2               3            
          KP   20.000000E-06   20.718860E-06 
       GAMMA    0               0            
         PHI     .6              .6          
      LAMBDA    0               0            
          RD     .1              .1          
          RS     .01             .01         
          RG     .5              .5          
         RDS    1.000000E+06    1.000000E+06 
          IS   10.000000E-15   10.000000E-15 
          JS    0               0            
          PB     .8              .8          
        PBSW     .8              .8          
         CBD    1.000000E-09    1.000000E-09 
          CJ    0               0            
        CJSW    0               0            
          TT    1.000000E-09    1.000000E-09 
        CGSO    1.000000E-09    1.000000E-09 
        CGDO  100.000000E-12  100.000000E-12 
        CGBO    0               0            
         TOX  100.000000E-09  100.000000E-09 
          XJ    0               0            
       UCRIT   10.000000E+03   10.000000E+03 
      DIOMOD    1               1            
         VFB    0               0            
        LETA    0               0            
        WETA    0               0            
          U0    0               0            
        TEMP    0               0            
         VDD    5               5            
       XPART    0               0            


**** 09/16/18 18:58:17 ******* PSpice Lite (March 2016) ******* ID# 10813 ****

 ** Profile: "SCHEMATIC1-ECEC351hw3"  [ C:\Cadence\Pspice Work\ECE351Hw3-PSpiceFiles\SCHEMATIC1\ECEC351hw3.sim ] 


 ****     SMALL SIGNAL BIAS SOLUTION       TEMPERATURE =   27.000 DEG C


******************************************************************************



 NODE   VOLTAGE     NODE   VOLTAGE     NODE   VOLTAGE     NODE   VOLTAGE


(N00366)   15.0000 (N00373)    5.4573 (N00377)    -.0102 (N00381)    0.0000     

(N00388)    -.8248 (N00426)  -15.0000 (N01149)   15.0000 (N01179)  -12.2060     

(N01395)  -15.0000 (N01575)  -14.2180 (N02285)  -14.3050 (N02321)  -15.0000     

(N02397)   15.0000 (N02409)  -13.6000 




    VOLTAGE SOURCE CURRENTS
    NAME         CURRENT

    V_V2        -4.771E-03
    V_V3        -4.785E-03
    V_V4        -1.363E-05
    V_V5        -1.345E-03
    V_V7        -2.744E-03
    V_V8        -1.174E-04
    V_V9        -1.711E-04

    TOTAL POWER DISSIPATION   2.09E-01  WATTS



          JOB CONCLUDED

**** 09/16/18 18:58:17 ******* PSpice Lite (March 2016) ******* ID# 10813 ****

 ** Profile: "SCHEMATIC1-ECEC351hw3"  [ C:\Cadence\Pspice Work\ECE351Hw3-PSpiceFiles\SCHEMATIC1\ECEC351hw3.sim ] 


 ****     JOB STATISTICS SUMMARY


******************************************************************************



  Total job time (using Solver 1)   =         .05
