
**** 05/07/18 20:28:34 ******* PSpice Lite (March 2016) ******* ID# 10813 ****

 ** Profile: "SCHEMATIC1-AC Analysis"  [ C:\Cadence\Pspice Work\ECE250HW8-PSpiceFiles\SCHEMATIC1\AC Analysis.sim ] 


 ****     CIRCUIT DESCRIPTION


******************************************************************************




** Creating circuit file "AC Analysis.cir" 
** WARNING: THIS AUTOMATICALLY GENERATED FILE MAY BE OVERWRITTEN BY SUBSEQUENT SIMULATIONS

*Libraries: 
* Profile Libraries :
* Local Libraries :
.LIB "../../../ece250hw8-pspicefiles/ece250hw8.lib" 
* From [PSPICE NETLIST] section of C:\SPB_Data\cdssetup\OrCAD_PSpice\17.2.0\PSpice.ini file:
.lib "nomd.lib" 

*Analysis directives: 
.AC DEC 100 0.001 10Meg
.OPTIONS ADVCONV
.PROBE64 V(alias(*)) I(alias(*)) W(alias(*)) D(alias(*)) NOISE(alias(*)) 
.INC "..\SCHEMATIC1.net" 



**** INCLUDING SCHEMATIC1.net ****
* source ECE250HW8
R_R1         VOUT N00331 9k 
C_C1         N00289 N00359 1000u 
I_I1         N00289 N00296 DC 1m
V_V1         N00366 0  DC 3
V_V2         N00331 0  DC 15
V_V3         0 N00296  DC 15
V_Vin         N00359 0  AC 1 0
Q_Q1         VOUT N00366 N00289 Qx 

**** RESUMING "AC Analysis.cir" ****
.END

**** 05/07/18 20:28:34 ******* PSpice Lite (March 2016) ******* ID# 10813 ****

 ** Profile: "SCHEMATIC1-AC Analysis"  [ C:\Cadence\Pspice Work\ECE250HW8-PSpiceFiles\SCHEMATIC1\AC Analysis.sim ] 


 ****     BJT MODEL PARAMETERS


******************************************************************************




               Qx              
               NPN             
       LEVEL    1            
          IS  100.000000E-18 
          BF  100            
          NF    1            
          BR    1            
          NR    1            
         ISS    0            
          RE    0            
          RC    0            
         CJE    0            
         VJE     .75         
         CJC    0            
         VJC     .75         
         MJC     .33         
        XCJC    1            
         CJS    0            
         VJS     .75         
          KF    0            
          AF    1            
          CN    2.42         
           D     .87         


**** 05/07/18 20:28:34 ******* PSpice Lite (March 2016) ******* ID# 10813 ****

 ** Profile: "SCHEMATIC1-AC Analysis"  [ C:\Cadence\Pspice Work\ECE250HW8-PSpiceFiles\SCHEMATIC1\AC Analysis.sim ] 


 ****     SMALL SIGNAL BIAS SOLUTION       TEMPERATURE =   27.000 DEG C


******************************************************************************



 NODE   VOLTAGE     NODE   VOLTAGE     NODE   VOLTAGE     NODE   VOLTAGE


( VOUT)    6.0891  (N00289)    2.2260 (N00296)  -15.0000 (N00331)   15.0000     

(N00359)    0.0000 (N00366)    3.0000 




    VOLTAGE SOURCE CURRENTS
    NAME         CURRENT

    V_V1        -9.901E-06
    V_V2        -9.901E-04
    V_V3        -1.000E-03
    V_Vin        0.000E+00

    TOTAL POWER DISSIPATION   2.99E-02  WATTS



          JOB CONCLUDED

**** 05/07/18 20:28:34 ******* PSpice Lite (March 2016) ******* ID# 10813 ****

 ** Profile: "SCHEMATIC1-AC Analysis"  [ C:\Cadence\Pspice Work\ECE250HW8-PSpiceFiles\SCHEMATIC1\AC Analysis.sim ] 


 ****     JOB STATISTICS SUMMARY


******************************************************************************



  Total job time (using Solver 1)   =         .03
