
**** 03/28/18 11:09:21 ****** PSpice 17.2.0 (March 2016) ****** ID# 0 ********

 ** Profile: "SCHEMATIC1-Prelab2"  [ c:\cadence\pspice work\prelab 3-PSpiceFiles\SCHEMATIC1\Prelab2.sim ] 


 ****     CIRCUIT DESCRIPTION


******************************************************************************




** Creating circuit file "Prelab2.cir" 
** WARNING: THIS AUTOMATICALLY GENERATED FILE MAY BE OVERWRITTEN BY SUBSEQUENT SIMULATIONS

*Libraries: 
* Profile Libraries :
* Local Libraries :
* From [PSPICE NETLIST] section of C:\SPB_Data\cdssetup\OrCAD_PSpice\17.2.0\PSpice.ini file:
.lib "C:\Cadence\RHIT_Libraries\Class.lib" 
.lib "nom.lib" 

*Analysis directives: 
.TRAN  0 0.05 0 10u 
.OPTIONS ADVCONV
.PROBE64 V(alias(*)) I(alias(*)) W(alias(*)) D(alias(*)) NOISE(alias(*)) 
.INC "..\SCHEMATIC1.net" 



**** INCLUDING SCHEMATIC1.net ****
* source PRELAB 3
V_V1         VIN 0 PWL
+ TIME_SCALE_FACTOR={1/60}
+ VALUE_SCALE_FACTOR=10
+repeat forever
+(0,0) (0.25,1) (0.75,-1) (1,0)
+endrepeat
R_R6         VIN VOUT 1k 
R_R14         0 VOUT4 1k 
V_V9         VIN4 0 PWL
+ TIME_SCALE_FACTOR={1/60}
+ VALUE_SCALE_FACTOR=10
+repeat forever
+(0,0) (0.25,1) (0.75,-1) (1,0)
+endrepeat
D_D18         N09987 VOUT4 D1N4733 
D_D20         0 VOUT D1N4733 
D_D21         VOUT2 0 D1N4733 
V_V11         VIN3 0 PWL
+ TIME_SCALE_FACTOR={1/60}
+ VALUE_SCALE_FACTOR=10
+repeat forever
+(0,0) (0.25,1) (0.75,-1) (1,0)
+endrepeat
R_R16         VIN3 VOUT3 1k 
D_D22         N09889 0 D1N4733 
D_D23         N09889 VOUT3 D1N4733 
D_D19         N09987 VIN4 D1N4733 
V_V12         VIN2 0 PWL
+ TIME_SCALE_FACTOR={1/60}
+ VALUE_SCALE_FACTOR=10
+repeat forever
+(0,0) (0.25,1) (0.75,-1) (1,0)
+endrepeat
R_R17         VIN2 VOUT2 1k 

**** RESUMING Prelab2.cir ****
.END

**** 03/28/18 11:09:21 ****** PSpice 17.2.0 (March 2016) ****** ID# 0 ********

 ** Profile: "SCHEMATIC1-Prelab2"  [ c:\cadence\pspice work\prelab 3-PSpiceFiles\SCHEMATIC1\Prelab2.sim ] 


 ****     Diode MODEL PARAMETERS


******************************************************************************




               D1N4733         
          IS    1.214000E-15 
         ISR    2.601000E-09 
          BV    5.1          
         IBV     .70507      
         NBV     .74348      
        IBVL    4.827400E-03 
        NBVL    6.7393       
          RS    1.078        
         CJO  185.000000E-12 
          VJ     .75         
           M     .3509       
        TBV1  176.471000E-06 


**** 03/28/18 11:09:21 ****** PSpice 17.2.0 (March 2016) ****** ID# 0 ********

 ** Profile: "SCHEMATIC1-Prelab2"  [ c:\cadence\pspice work\prelab 3-PSpiceFiles\SCHEMATIC1\Prelab2.sim ] 


 ****     INITIAL TRANSIENT SOLUTION       TEMPERATURE =   27.000 DEG C


******************************************************************************



 NODE   VOLTAGE     NODE   VOLTAGE     NODE   VOLTAGE     NODE   VOLTAGE


(  VIN)    0.0000  ( VIN2)    0.0000  ( VIN3)    0.0000  ( VIN4)    0.0000      

( VOUT) 237.5E-24  (VOUT2)-237.5E-24  (VOUT3) 426.6E-30  (VOUT4) 426.6E-30      

(N09889) 1.762E-18 (N09987) 1.762E-18 




    VOLTAGE SOURCE CURRENTS
    NAME         CURRENT

    V_V1         2.375E-25
    V_V9         0.000E+00
    V_V11        0.000E+00
    V_V12       -2.375E-25

    TOTAL POWER DISSIPATION   0.00E+00  WATTS



          JOB CONCLUDED

**** 03/28/18 11:09:21 ****** PSpice 17.2.0 (March 2016) ****** ID# 0 ********

 ** Profile: "SCHEMATIC1-Prelab2"  [ c:\cadence\pspice work\prelab 3-PSpiceFiles\SCHEMATIC1\Prelab2.sim ] 


 ****     JOB STATISTICS SUMMARY


******************************************************************************



  Total job time (using Solver 1)   =         .08
